Freq.	V(out)
1.00000000000000e+000	(-1.04455544956774e+002dB,1.84600707744783e+000°)
1.02329299228075e+000	(-1.04055257697200e+002dB,1.88895687916145e+000°)
1.04712854805090e+000	(-1.03654956920339e+002dB,1.93290359393970e+000°)
1.07151930523761e+000	(-1.03254641991155e+002dB,1.97787019191543e+000°)
1.09647819614318e+000	(-1.02854312244768e+002dB,2.02388016037448e+000°)
1.12201845430196e+000	(-1.02453966985437e+002dB,2.07095751454992e+000°)
1.14815362149688e+000	(-1.02053605484536e+002dB,2.11912680852276e+000°)
1.17489755493953e+000	(-1.01653226979610e+002dB,2.16841314636759e+000°)
1.20226443461741e+000	(-1.01252830672546e+002dB,2.21884219335112e+000°)
1.23026877081238e+000	(-1.00852415727672e+002dB,2.27044018736321e+000°)
1.25892541179417e+000	(-1.00451981270531e+002dB,2.32323395045724e+000°)
1.28824955169313e+000	(-1.00051526385635e+002dB,2.37725090054332e+000°)
1.31825673855641e+000	(-9.96510501149753e+001dB,2.43251906322845e+000°)
1.34896288259165e+000	(-9.92505514555591e+001dB,2.48906708374935e+000°)
1.38038426460288e+000	(-9.88500293579446e+001dB,2.54692423909036e+000°)
1.41253754462275e+000	(-9.84494827233027e+001dB,2.60612045015010e+000°)
1.44543977074593e+000	(-9.80489104019779e+001dB,2.66668629407652e+000°)
1.47910838816821e+000	(-9.76483111906781e+001dB,2.72865301667095e+000°)
1.51356124843621e+000	(-9.72476838300074e+001dB,2.79205254484608e+000°)
1.54881661891248e+000	(-9.68470270021326e+001dB,2.85691749924449e+000°)
1.58489319246111e+000	(-9.64463393277654e+001dB,2.92328120682288e+000°)
1.62181009735893e+000	(-9.60456193636637e+001dB,2.99117771355067e+000°)
1.65958690743756e+000	(-9.56448655995568e+001dB,3.06064179711311e+000°)
1.69824365246174e+000	(-9.52440764549263e+001dB,3.13170897960981e+000°)
1.73780082874937e+000	(-9.48432502762850e+001dB,3.20441554032003e+000°)
1.77827941003892e+000	(-9.44423853332894e+001dB,3.27879852833137e+000°)
1.81970085860998e+000	(-9.40414798156419e+001dB,3.35489577520952e+000°)
1.86208713666287e+000	(-9.36405318291708e+001dB,3.43274590756189e+000°)
1.90546071796325e+000	(-9.32395393922202e+001dB,3.51238835949562e+000°)
1.94984459975804e+000	(-9.28385004317797e+001dB,3.59386338496114e+000°)
1.99526231496888e+000	(-9.24374127790315e+001dB,3.67721206991037e+000°)
2.04173794466953e+000	(-9.20362741653769e+001dB,3.76247634430499e+000°)
2.08929613085404e+000	(-9.16350822176355e+001dB,3.84969899381555e+000°)
2.13796208950223e+000	(-9.12338344537773e+001dB,3.93892367135384e+000°)
2.18776162394955e+000	(-9.08325282774668e+001dB,4.03019490818824e+000°)
2.23872113856834e+000	(-9.04311609734962e+001dB,4.12355812476517e+000°)
2.29086765276777e+000	(-9.00297297022769e+001dB,4.21905964109322e+000°)
2.34422881531992e+000	(-8.96282314943148e+001dB,4.31674668668151e+000°)
2.39883291901949e+000	(-8.92266632443576e+001dB,4.41666740991099e+000°)
2.45470891568503e+000	(-8.88250217057568e+001dB,4.51887088690899e+000°)
2.51188643150958e+000	(-8.84233034838030e+001dB,4.62340712966487e+000°)
2.57039578276886e+000	(-8.80215050295879e+001dB,4.73032709353871e+000°)
2.63026799189538e+000	(-8.76196226329929e+001dB,4.83968268384999e+000°)
2.69153480392691e+000	(-8.72176524158584e+001dB,4.95152676172456e+000°)
2.75422870333816e+000	(-8.68155903249118e+001dB,5.06591314889882e+000°)
2.81838293126445e+000	(-8.64134321235336e+001dB,5.18289663143714e+000°)
2.88403150312660e+000	(-8.60111733846261e+001dB,5.30253296237367e+000°)
2.95120922666638e+000	(-8.56088094819160e+001dB,5.42487886306272e+000°)
3.01995172040201e+000	(-8.52063355820151e+001dB,5.54999202311005e+000°)
3.09029543251359e+000	(-8.48037466349891e+001dB,5.67793109891217e+000°)
3.16227766016837e+000	(-8.44010373659200e+001dB,5.80875571046790e+000°)
3.23593656929628e+000	(-8.39982022649453e+001dB,5.94252643651819e+000°)
3.31131121482591e+000	(-8.35952355778128e+001dB,6.07930480769831e+000°)
3.38844156139202e+000	(-8.31921312956916e+001dB,6.21915329781377e+000°)
3.46736850452531e+000	(-8.27888831445398e+001dB,6.36213531263643e+000°)
3.54813389233575e+000	(-8.23854845746541e+001dB,6.50831517663102e+000°)
3.63078054770101e+000	(-8.19819287492082e+001dB,6.65775811685547e+000°)
3.71535229097172e+000	(-8.15782085327977e+001dB,6.81053024427060e+000°)
3.80189396320560e+000	(-8.11743164796009e+001dB,6.96669853208568e+000°)
3.89045144994280e+000	(-8.07702448211533e+001dB,7.12633079083866e+000°)
3.98107170553496e+000	(-8.03659854536186e+001dB,7.28949564022851e+000°)
4.07380277804112e+000	(-7.99615299250266e+001dB,7.45626247725531e+000°)
4.16869383470335e+000	(-7.95568694217192e+001dB,7.62670144057914e+000°)
4.26579518801592e+000	(-7.91519947546919e+001dB,7.80088337062761e+000°)
4.36515832240165e+000	(-7.87468963456929e+001dB,7.97887976545969e+000°)
4.46683592150962e+000	(-7.83415642129130e+001dB,8.16076273195727e+000°)
4.57088189614874e+000	(-7.79359879559164e+001dB,8.34660493196905e+000°)
4.67735141287197e+000	(-7.75301567409340e+001dB,8.53647952331807e+000°)
4.78630092322637e+000	(-7.71240592854921e+001dB,8.73046009522882e+000°)
4.89778819368445e+000	(-7.67176838428663e+001dB,8.92862059778853e+000°)
5.01187233627271e+000	(-7.63110181860379e+001dB,9.13103526532838e+000°)
5.12861383991364e+000	(-7.59040495917841e+001dB,9.33777853308116e+000°)
5.24807460249771e+000	(-7.54967648242620e+001dB,9.54892494712597e+000°)
5.37031796370252e+000	(-7.50891501186574e+001dB,9.76454906683565e+000°)
5.49540873857623e+000	(-7.46811911646457e+001dB,9.98472535987663e+000°)
5.62341325190348e+000	(-7.42728730895515e+001dB,1.02095280891027e+001°)
5.75439937337156e+000	(-7.38641804417037e+001dB,1.04390311910344e+001°)
5.88843655355588e+000	(-7.34550971739222e+001dB,1.06733081456183e+001°)
6.02559586074356e+000	(-7.30456066265115e+001dB,1.09124318368302e+001°)
6.16595001861481e+000	(-7.26356915112319e+001dB,1.11564744037487e+001°)
6.30957344480192e+000	(-7.22253338947328e+001dB,1.14055070817037e+001°)
6.45654229034654e+000	(-7.18145151827563e+001dB,1.16596000331546e+001°)
6.60693448007594e+000	(-7.14032161043921e+001dB,1.19188221680225e+001°)
6.76082975391980e+000	(-7.09914166970392e+001dB,1.21832409528601e+001°)
6.91830970918935e+000	(-7.05790962921462e+001dB,1.24529222091484e+001°)
7.07945784384136e+000	(-7.01662335007878e+001dB,1.27279298994474e+001°)
7.24435960074988e+000	(-6.97528062011400e+001dB,1.30083259022610e+001°)
7.41310241300916e+000	(-6.93387915260542e+001dB,1.32941697744290e+001°)
7.58577575029182e+000	(-6.89241658521813e+001dB,1.35855185014934e+001°)
7.76247116628690e+000	(-6.85089047897945e+001dB,1.38824262354221e+001°)
7.94328234724279e+000	(-6.80929831748851e+001dB,1.41849440202206e+001°)
8.12830516164097e+000	(-6.76763750617258e+001dB,1.44931195044483e+001°)
8.31763771102669e+000	(-6.72590537175371e+001dB,1.48069966416461e+001°)
8.51138038202374e+000	(-6.68409916194631e+001dB,1.51266153782713e+001°)
8.70963589956078e+000	(-6.64221604528059e+001dB,1.54520113294230e+001°)
8.91250938133743e+000	(-6.60025311119970e+001dB,1.57832154424325e+001°)
9.12010839355907e+000	(-6.55820737040638e+001dB,1.61202536492969e+001°)
9.33254300796988e+000	(-6.51607575541071e+001dB,1.64631465078766e+001°)
9.54992586021433e+000	(-6.47385512146692e+001dB,1.68119088327574e+001°)
9.77237220955808e+000	(-6.43154224769569e+001dB,1.71665493160716e+001°)
9.99999999999997e+000	(-6.38913383862272e+001dB,1.75270701401578e+001°)
1.02329299228075e+001	(-6.34662652600632e+001dB,1.78934665818465e+001°)
1.04712854805090e+001	(-6.30401687111139e+001dB,1.82657266106218e+001°)
1.07151930523760e+001	(-6.26130136720981e+001dB,1.86438304807648e+001°)
1.09647819614318e+001	(-6.21847644270283e+001dB,1.90277503207299e+001°)
1.12201845430196e+001	(-6.17553846450457e+001dB,1.94174497192903e+001°)
1.14815362149688e+001	(-6.13248374191897e+001dB,1.98128833120738e+001°)
1.17489755493953e+001	(-6.08930853101263e+001dB,2.02139963693655e+001°)
1.20226443461741e+001	(-6.04600903938801e+001dB,2.06207243878677e+001°)
1.23026877081238e+001	(-6.00258143151064e+001dB,2.10329926884062e+001°)
1.25892541179416e+001	(-5.95902183449534e+001dB,2.14507160224601e+001°)
1.28824955169313e+001	(-5.91532634437946e+001dB,2.18737981895568e+001°)
1.31825673855640e+001	(-5.87149103297439e+001dB,2.23021316690014e+001°)
1.34896288259165e+001	(-5.82751195510990e+001dB,2.27355972682127e+001°)
1.38038426460288e+001	(-5.78338515650037e+001dB,2.31740637909310e+001°)
1.41253754462275e+001	(-5.73910668199949e+001dB,2.36173877283981e+001°)
1.44543977074592e+001	(-5.69467258443178e+001dB,2.40654129767240e+001°)
1.47910838816820e+001	(-5.65007893380537e+001dB,2.45179705832666e+001°)
1.51356124843620e+001	(-5.60532182704742e+001dB,2.49748785255965e+001°)
1.54881661891248e+001	(-5.56039739808265e+001dB,2.54359415258594e+001°)
1.58489319246111e+001	(-5.51530182836142e+001dB,2.59009509040761e+001°)
1.62181009735892e+001	(-5.47003135770901e+001dB,2.63696844729313e+001°)
1.65958690743755e+001	(-5.42458229547204e+001dB,2.68419064767654e+001°)
1.69824365246174e+001	(-5.37895103195314e+001dB,2.73173675781501e+001°)
1.73780082874937e+001	(-5.33313405000774e+001dB,2.77958048936271e+001°)
1.77827941003892e+001	(-5.28712793684124e+001dB,2.82769420810640e+001°)
1.81970085860998e+001	(-5.24092939586879e+001dB,2.87604894808677e+001°)
1.86208713666286e+001	(-5.19453525856971e+001dB,2.92461443115072e+001°)
1.90546071796324e+001	(-5.14794249635034e+001dB,2.97335909215863e+001°)
1.94984459975804e+001	(-5.10114823223962e+001dB,3.02225010981017e+001°)
1.99526231496887e+001	(-5.05414975241245e+001dB,3.07125344316770e+001°)
2.04173794466952e+001	(-5.00694451745051e+001dB,3.12033387382553e+001°)
2.08929613085403e+001	(-4.95953017318022e+001dB,3.16945505359990e+001°)
2.13796208950222e+001	(-4.91190456121769e+001dB,3.21857955770811e+001°)
2.18776162394954e+001	(-4.86406572891241e+001dB,3.26766894312106e+001°)
2.23872113856833e+001	(-4.81601193873633e+001dB,3.31668381193628e+001°)
2.29086765276776e+001	(-4.76774167702306e+001dB,3.36558387942652e+001°)
2.34422881531991e+001	(-4.71925366208058e+001dB,3.41432804649155e+001°)
2.39883291901948e+001	(-4.67054685139002e+001dB,3.46287447600752e+001°)
2.45470891568502e+001	(-4.62162044807454e+001dB,3.51118067270932e+001°)
2.51188643150957e+001	(-4.57247390651201e+001dB,3.55920356621452e+001°)
2.57039578276885e+001	(-4.52310693692156e+001dB,3.60689959643765e+001°)
2.63026799189537e+001	(-4.47351950909446e+001dB,3.65422480113003e+001°)
2.69153480392690e+001	(-4.42371185517362e+001dB,3.70113490484643e+001°)
2.75422870333815e+001	(-4.37368447129796e+001dB,3.74758540869154e+001°)
2.81838293126444e+001	(-4.32343811839495e+001dB,3.79353168043597e+001°)
2.88403150312659e+001	(-4.27297382191534e+001dB,3.83892904429141e+001°)
2.95120922666637e+001	(-4.22229287058961e+001dB,3.88373286978444e+001°)
3.01995172040200e+001	(-4.17139681419783e+001dB,3.92789865915888e+001°)
3.09029543251358e+001	(-4.12028746045125e+001dB,3.97138213280408e+001°)
3.16227766016837e+001	(-4.06896687094627e+001dB,4.01413931208303e+001°)
3.23593656929627e+001	(-4.01743735624847e+001dB,4.05612659917132e+001°)
3.31131121482590e+001	(-3.96570147025825e+001dB,4.09730085340578e+001°)
3.38844156139201e+001	(-3.91376200372148e+001dB,4.13761946366722e+001°)
3.46736850452530e+001	(-3.86162197716025e+001dB,4.17704041657174e+001°)
3.54813389233574e+001	(-3.80928463315300e+001dB,4.21552235999446e+001°)
3.63078054770100e+001	(-3.75675342811450e+001dB,4.25302466180890e+001°)
3.71535229097171e+001	(-3.70403202352895e+001dB,4.28950746344242e+001°)
3.80189396320559e+001	(-3.65112427698101e+001dB,4.32493172835890e+001°)
3.89045144994279e+001	(-3.59803423266964e+001dB,4.35925928503274e+001°)
3.98107170553495e+001	(-3.54476611185584e+001dB,4.39245286466273e+001°)
4.07380277804111e+001	(-3.49132430313010e+001dB,4.42447613346493e+001°)
4.16869383470333e+001	(-3.43771335254512e+001dB,4.45529371957785e+001°)
4.26579518801591e+001	(-3.38393795382618e+001dB,4.48487123480833e+001°)
4.36515832240164e+001	(-3.33000293861387e+001dB,4.51317529125124e+001°)
4.46683592150961e+001	(-3.27591326684529e+001dB,4.54017351297629e+001°)
4.57088189614873e+001	(-3.22167401733795e+001dB,4.56583454304487e+001°)
4.67735141287196e+001	(-3.16729037864829e+001dB,4.59012804610014e+001°)
4.78630092322636e+001	(-3.11276764017172e+001dB,4.61302470672264e+001°)
4.89778819368444e+001	(-3.05811118366078e+001dB,4.63449622402814e+001°)
5.01187233627270e+001	(-3.00332647508024e+001dB,4.65451530258865e+001°)
5.12861383991362e+001	(-2.94841905694238e+001dB,4.67305564030554e+001°)
5.24807460249770e+001	(-2.89339454102225e+001dB,4.69009191326259e+001°)
5.37031796370250e+001	(-2.83825860163457e+001dB,4.70559975819512e+001°)
5.49540873857622e+001	(-2.78301696929466e+001dB,4.71955575270998e+001°)
5.62341325190346e+001	(-2.72767542501905e+001dB,4.73193739379867e+001°)
5.75439937337154e+001	(-2.67223979500849e+001dB,4.74272307481633e+001°)
5.88843655355586e+001	(-2.61671594595851e+001dB,4.75189206146733e+001°)
6.02559586074355e+001	(-2.56110978078899e+001dB,4.75942446690728e+001°)
6.16595001861479e+001	(-2.50542723494584e+001dB,4.76530122651357e+001°)
6.30957344480190e+001	(-2.44967427318644e+001dB,4.76950407249637e+001°)
6.45654229034652e+001	(-2.39385688682062e+001dB,4.77201550868225e+001°)
6.60693448007593e+001	(-2.33798109143623e+001dB,4.77281878574941e+001°)
6.76082975391978e+001	(-2.28205292508885e+001dB,4.77189787723567e+001°)
6.91830970918933e+001	(-2.22607844687955e+001dB,4.76923745648961e+001°)
7.07945784384134e+001	(-2.17006373594377e+001dB,4.76482287482804e+001°)
7.24435960074986e+001	(-2.11401489079370e+001dB,4.75864014109624e+001°)
7.41310241300914e+001	(-2.05793802903843e+001dB,4.75067590290814e+001°)
7.58577575029180e+001	(-2.00183928735656e+001dB,4.74091742956154e+001°)
7.76247116628688e+001	(-1.94572482177496e+001dB,4.72935259696074e+001°)
7.94328234724277e+001	(-1.88960080817612e+001dB,4.71596987457792e+001°)
8.12830516164095e+001	(-1.83347344303077e+001dB,4.70075831460682e+001°)
8.31763771102667e+001	(-1.77734894425120e+001dB,4.68370754334524e+001°)
8.51138038202372e+001	(-1.72123355221241e+001dB,4.66480775494678e+001°)
8.70963589956076e+001	(-1.66513353085591e+001dB,4.64404970754172e+001°)
8.91250938133741e+001	(-1.60905516886611e+001dB,4.62142472185459e+001°)
9.12010839355905e+001	(-1.55300478080571e+001dB,4.59692468210709e+001°)
9.33254300796986e+001	(-1.49698870832827e+001dB,4.57054203954140e+001°)
9.54992586021431e+001	(-1.44101332124117e+001dB,4.54226981817687e+001°)
9.77237220955805e+001	(-1.38508501852668e+001dB,4.51210162301768e+001°)
9.99999999999995e+001	(-1.32921022922531e+001dB,4.48003165052736e+001°)
1.02329299228075e+002	(-1.27339541314780e+001dB,4.44605470132350e+001°)
1.04712854805089e+002	(-1.21764706138787e+001dB,4.41016619494080e+001°)
1.07151930523760e+002	(-1.16197169659572e+001dB,4.37236218656249e+001°)
1.09647819614318e+002	(-1.10637587301389e+001dB,4.33263938567458e+001°)
1.12201845430196e+002	(-1.05086617616460e+001dB,4.29099517622454e+001°)
1.14815362149688e+002	(-9.95449222282021e+000dB,4.24742763847045e+001°)
1.17489755493952e+002	(-9.40131657325177e+000dB,4.20193557191032e+001°)
1.20226443461741e+002	(-8.84920155654206e+000dB,4.15451851941509e+001°)
1.23026877081237e+002	(-8.29821418316872e+000dB,4.10517679218323e+001°)
1.25892541179416e+002	(-7.74842170878777e+000dB,4.05391149520991e+001°)
1.28824955169313e+002	(-7.19989160868475e+000dB,4.00072455313799e+001°)
1.31825673855640e+002	(-6.65269154743245e+000dB,3.94561873611081e+001°)
1.34896288259165e+002	(-6.10688934417980e+000dB,3.88859768535211e+001°)
1.38038426460288e+002	(-5.56255293359965e+000dB,3.82966593828243e+001°)
1.41253754462275e+002	(-5.01975032178505e+000dB,3.76882895262612e+001°)
1.44543977074592e+002	(-4.47854953799203e+000dB,3.70609312942526e+001°)
1.47910838816820e+002	(-3.93901858199563e+000dB,3.64146583459062e+001°)
1.51356124843620e+002	(-3.40122536703818e+000dB,3.57495541852109e+001°)
1.54881661891247e+002	(-2.86523765853954e+000dB,3.50657123367642e+001°)
1.58489319246110e+002	(-2.33112300943385e+000dB,3.43632364967178e+001°)
1.62181009735892e+002	(-1.79894869147361e+000dB,3.36422406569010e+001°)
1.65958690743755e+002	(-1.26878162376636e+000dB,3.29028491983379e+001°)
1.69824365246173e+002	(-7.40688298073952e-001dB,3.21451969516870e+001°)
1.73780082874936e+002	(-2.14734702333246e-001dB,3.13694292241477e+001°)
1.77827941003891e+002	(3.09013758161742e-001dB,3.05757017872433e+001°)
1.81970085860997e+002	(8.30492340694501e-001dB,2.97641808266506e+001°)
1.86208713666286e+002	(1.34963704572252e+000dB,2.89350428518594e+001°)
1.90546071796323e+002	(1.86638469773087e+000dB,2.80884745637037e+001°)
1.94984459975803e+002	(2.38067302563121e+000dB,2.72246726796330e+001°)
1.99526231496887e+002	(2.89244074177614e+000dB,2.63438437184635e+001°)
2.04173794466952e+002	(3.40162761949227e+000dB,2.54462037404590e+001°)
2.08929613085403e+002	(3.90817456783689e+000dB,2.45319780492340e+001°)
2.13796208950222e+002	(4.41202370367112e+000dB,2.36014008508556e+001°)
2.18776162394954e+002	(4.91311841936361e+000dB,2.26547148780995e+001°)
2.23872113856832e+002	(5.41140344661691e+000dB,2.16921709761478e+001°)
2.29086765276776e+002	(5.90682491535632e+000dB,2.07140276562078e+001°)
2.34422881531991e+002	(6.39933040674599e+000dB,1.97205506211470e+001°)
2.39883291901947e+002	(6.88886900058754e+000dB,1.87120122620048e+001°)
2.45470891568501e+002	(7.37539131627936e+000dB,1.76886911349183e+001°)
2.51188643150956e+002	(7.85884954702645e+000dB,1.66508714187653e+001°)
2.57039578276885e+002	(8.33919748691248e+000dB,1.55988423618755e+001°)
2.63026799189536e+002	(8.81639055119990e+000dB,1.45328977179310e+001°)
2.69153480392690e+002	(9.29038578894253e+000dB,1.34533351807798e+001°)
2.75422870333815e+002	(9.76114188844744e+000dB,1.23604558211478e+001°)
2.81838293126443e+002	(1.02286191757721e+001dB,1.12545635287505e+001°)
2.88403150312659e+002	(1.06927796057702e+001dB,1.01359644692592e+001°)
2.95120922666637e+002	(1.11535867469827e+001dB,9.00496655530429e+000°)
3.01995172040200e+002	(1.16110057595188e+001dB,7.86187894153016e+000°)
3.09029543251357e+002	(1.20650033673361e+001dB,6.70701154396441e+000°)
3.16227766016836e+002	(1.25155478252213e+001dB,5.54067459017156e+000°)
3.23593656929626e+002	(1.29626088805648e+001dB,4.36317820182071e+000°)
3.31131121482589e+002	(1.34061577312257e+001dB,3.17483201426210e+000°)
3.38844156139200e+002	(1.38461669798554e+001dB,1.97594483408111e+000°)
3.46736850452529e+002	(1.42826105852599e+001dB,7.66824338235671e-001°)
3.54813389233573e+002	(1.47154638120399e+001dB,-4.52223186553632e-001°)
3.63078054770099e+002	(1.51447031790004e+001dB,-1.68089306170108e+000°)
3.71535229097170e+002	(1.55703064068370e+001dB,-2.91888239181070e+000°)
3.80189396320558e+002	(1.59922523663290e+001dB,-4.16589019917202e+000°)
3.89045144994278e+002	(1.64105210276768e+001dB,-5.42161751806627e+000°)
3.98107170553494e+002	(1.68250934114558e+001dB,-6.68576745117188e+000°)
4.07380277804110e+002	(1.72359515421370e+001dB,-7.95804519057130e+000°)
4.16869383470332e+002	(1.76430784044336e+001dB,-9.23815800578282e+000°)
4.26579518801589e+002	(1.80464579033502e+001dB,-1.05258152039543e+001°)
4.36515832240163e+002	(1.84460748282033e+001dB,-1.18207280642554e+001°)
4.46683592150960e+002	(1.88419148209595e+001dB,-1.31226097527295e+001°)
4.57088189614872e+002	(1.92339643493361e+001dB,-1.44311752195235e+001°)
4.67735141287195e+002	(1.96222106844592e+001dB,-1.57461410863896e+001°)
4.78630092322635e+002	(2.00066418837592e+001dB,-1.70672255266804e+001°)
4.89778819368443e+002	(2.03872467784836e+001dB,-1.83941481435056e+001°)
5.01187233627268e+002	(2.07640149660477e+001dB,-1.97266298508620e+001°)
5.12861383991361e+002	(2.11369368071302e+001dB,-2.10643927629907e+001°)
5.24807460249769e+002	(2.15060034267471e+001dB,-2.24071600942647e+001°)
5.37031796370249e+002	(2.18712067193401e+001dB,-2.37546560749304e+001°)
5.49540873857620e+002	(2.22325393573854e+001dB,-2.51066058878303e+001°)
5.62341325190345e+002	(2.25899948026917e+001dB,-2.64627356243985e+001°)
5.75439937337152e+002	(2.29435673200814e+001dB,-2.78227722684339e+001°)
5.88843655355584e+002	(2.32932519928751e+001dB,-2.91864437052971e+001°)
